(1542546851.728661) slcan0 000#8100
(1542546853.728829) slcan0 000#0100
(1542546854.729146) slcan0 321#000003
(1542546855.729332) slcan0 322#000003
(1542546856.729518) slcan0 323#000003
(1542546857.729705) slcan0 324#000003
(1542546858.729882) slcan0 221#0600
(1542546859.730079) slcan0 221#0F00
(1542546860.730256) slcan0 222#0600
(1542546861.388949) slcan0 222#0F00
(1542546861.683946) slcan0 223#0600
(1542546862.684127) slcan0 223#0F00
(1542546863.684299) slcan0 224#0600
(1542546864.303755) slcan0 701#00
(1542546864.305123) slcan0 702#00
(1542546864.305152) slcan0 703#00
(1542546864.305174) slcan0 704#00
(1542546864.684458) slcan0 224#0F00
(1542546866.684924) slcan0 000#8100
(1542546868.093978) slcan0 703#00
(1542546868.095341) slcan0 702#00
(1542546868.095368) slcan0 701#00
(1542546868.095390) slcan0 704#00
(1542546868.685091) slcan0 000#0200
(1542546870.996527) slcan0 000#8100
(1542546872.405858) slcan0 703#00
(1542546872.405887) slcan0 702#00
(1542546872.407222) slcan0 701#00
(1542546872.407237) slcan0 704#00
(1542546872.996718) slcan0 000#0100
(1542546873.997031) slcan0 321#000003
(1542546874.997266) slcan0 322#000003
(1542546875.997493) slcan0 323#000003
(1542546876.997715) slcan0 324#000003
(1542546877.998258) slcan0 221#0600
(1542546878.998833) slcan0 221#0F00
(1542546879.999503) slcan0 222#0600
(1542546881.000068) slcan0 222#0F00
(1542546882.000652) slcan0 223#0600
(1542546883.001183) slcan0 223#0F00
(1542546884.001733) slcan0 224#0600
(1542546885.002320) slcan0 224#0F00
(1542546887.027158) slcan0 4A1#R
(1542546887.027866) slcan0 4A2#R
(1542546887.028505) slcan0 4A3#R
(1542546887.029150) slcan0 4A4#R
(1542546887.029962) slcan0 4A1#R
(1542546887.030429) slcan0 4A1#00000000
(1542546887.030457) slcan0 4A2#00000000
(1542546887.030601) slcan0 4A2#R
(1542546887.031236) slcan0 4A3#R
(1542546887.033298) slcan0 4A1#00000000
(1542546887.033332) slcan0 4A2#00000000
(1542546887.033394) slcan0 4A4#R
(1542546887.034675) slcan0 4A3#00000000
(1542546887.034703) slcan0 4A4#00000000
(1542546887.036173) slcan0 4A3#00000000
(1542546887.037556) slcan0 4A4#00000000
(1542546887.040015) slcan0 4A1#R
(1542546887.040649) slcan0 4A2#R
(1542546887.041282) slcan0 4A3#R
(1542546887.041920) slcan0 4A4#R
(1542546887.043301) slcan0 4A1#00000000
(1542546887.043330) slcan0 4A2#00000000
(1542546887.044674) slcan0 4A3#00000000
(1542546887.046173) slcan0 4A4#00000000
(1542546887.050017) slcan0 4A1#R
(1542546887.050652) slcan0 4A2#R
(1542546887.051285) slcan0 4A3#R
(1542546887.051920) slcan0 4A4#R
(1542546887.053302) slcan0 4A1#00000000
(1542546887.053330) slcan0 4A2#00000000
(1542546887.054675) slcan0 4A3#00000000
(1542546887.056176) slcan0 4A4#00000000
(1542546887.060010) slcan0 4A1#R
(1542546887.060646) slcan0 4A2#R
(1542546887.061280) slcan0 4A3#R
(1542546887.061914) slcan0 4A4#R
(1542546887.063304) slcan0 4A1#00000000
(1542546887.063332) slcan0 4A2#00000000
(1542546887.064677) slcan0 4A3#00000000
(1542546887.066177) slcan0 4A4#00000000
(1542546887.070008) slcan0 4A1#R
(1542546887.070642) slcan0 4A2#R
(1542546887.071276) slcan0 4A3#R
(1542546887.071912) slcan0 4A4#R
(1542546887.073305) slcan0 4A1#00000000
(1542546887.073334) slcan0 4A2#00000000
(1542546887.074677) slcan0 4A3#00000000
(1542546887.076177) slcan0 4A4#00000000
(1542546887.080009) slcan0 4A1#R
(1542546887.080644) slcan0 4A2#R
(1542546887.081279) slcan0 4A3#R
(1542546887.081913) slcan0 4A4#R
(1542546887.083306) slcan0 4A1#00000000
(1542546887.083334) slcan0 4A2#00000000
(1542546887.084679) slcan0 4A3#00000000
(1542546887.086178) slcan0 4A4#00000000
(1542546887.090013) slcan0 4A1#R
(1542546887.090649) slcan0 4A2#R
(1542546887.091284) slcan0 4A3#R
(1542546887.091918) slcan0 4A4#R
(1542546887.093308) slcan0 4A1#00000000
(1542546887.093337) slcan0 4A2#00000000
(1542546887.094680) slcan0 4A3#00000000
(1542546887.096180) slcan0 4A4#00000000
(1542546887.100008) slcan0 4A1#R
(1542546887.100642) slcan0 4A2#R
(1542546887.101276) slcan0 4A3#R
(1542546887.101916) slcan0 4A4#R
(1542546887.103309) slcan0 4A1#00000000
(1542546887.103336) slcan0 4A2#00000000
(1542546887.104681) slcan0 4A3#00000000
(1542546887.106181) slcan0 4A4#00000000
(1542546887.110009) slcan0 4A1#R
(1542546887.110643) slcan0 4A2#R
(1542546887.111277) slcan0 4A3#R
(1542546887.111917) slcan0 4A4#R
(1542546887.113310) slcan0 4A1#00000000
(1542546887.113338) slcan0 4A2#00000000
(1542546887.114682) slcan0 4A3#00000000
(1542546887.116181) slcan0 4A4#00000000
(1542546887.120009) slcan0 4A1#R
(1542546887.120646) slcan0 4A2#R
(1542546887.121279) slcan0 4A3#R
(1542546887.121918) slcan0 4A4#R
(1542546887.123312) slcan0 4A1#00000000
(1542546887.123340) slcan0 4A2#00000000
(1542546887.124683) slcan0 4A3#00000000
(1542546887.126182) slcan0 4A4#00000000
(1542546887.130014) slcan0 4A1#R
(1542546887.130651) slcan0 4A2#R
(1542546887.131285) slcan0 4A3#R
(1542546887.131920) slcan0 4A4#R
(1542546887.133313) slcan0 4A1#00000000
(1542546887.133342) slcan0 4A2#00000000
(1542546887.134685) slcan0 4A3#00000000
(1542546887.136185) slcan0 4A4#00000000
(1542546887.140010) slcan0 4A1#R
(1542546887.140646) slcan0 4A2#R
(1542546887.141280) slcan0 4A3#R
(1542546887.141920) slcan0 4A4#R
(1542546887.143313) slcan0 4A1#00000000
(1542546887.143341) slcan0 4A2#00000000
(1542546887.144687) slcan0 4A3#00000000
(1542546887.146184) slcan0 4A4#00000000
(1542546887.150009) slcan0 4A1#R
(1542546887.150644) slcan0 4A2#R
(1542546887.151278) slcan0 4A3#R
(1542546887.151921) slcan0 4A4#R
(1542546887.153314) slcan0 4A1#00000000
(1542546887.153342) slcan0 4A2#00000000
(1542546887.154687) slcan0 4A3#00000000
(1542546887.156186) slcan0 4A4#00000000
(1542546887.160010) slcan0 4A1#R
(1542546887.160647) slcan0 4A2#R
(1542546887.161282) slcan0 4A3#R
(1542546887.161922) slcan0 4A4#R
(1542546887.163316) slcan0 4A1#00000000
(1542546887.163344) slcan0 4A2#00000000
(1542546887.164688) slcan0 4A3#00000000
(1542546887.166187) slcan0 4A4#00000000
(1542546887.170015) slcan0 4A1#R
(1542546887.170651) slcan0 4A2#R
(1542546887.171284) slcan0 4A3#R
(1542546887.171924) slcan0 4A4#R
(1542546887.173317) slcan0 4A1#00000000
(1542546887.173346) slcan0 4A2#00000000
(1542546887.174690) slcan0 4A3#00000000
(1542546887.176189) slcan0 4A4#00000000
(1542546887.180008) slcan0 4A1#R
(1542546887.180644) slcan0 4A2#R
(1542546887.181281) slcan0 4A3#R
(1542546887.181925) slcan0 4A4#R
(1542546887.183319) slcan0 4A1#00000000
(1542546887.183347) slcan0 4A2#00000000
(1542546887.184691) slcan0 4A3#00000000
(1542546887.186191) slcan0 4A4#00000000
(1542546887.190008) slcan0 4A1#R
(1542546887.190648) slcan0 4A2#R
(1542546887.191284) slcan0 4A3#R
(1542546887.191926) slcan0 4A4#R
(1542546887.193320) slcan0 4A1#00000000
(1542546887.193348) slcan0 4A2#00000000
(1542546887.194817) slcan0 4A3#00000000
(1542546887.196192) slcan0 4A4#00000000
(1542546887.200008) slcan0 4A1#R
(1542546887.200644) slcan0 4A2#R
(1542546887.201278) slcan0 4A3#R
(1542546887.201913) slcan0 4A4#R
(1542546887.203321) slcan0 4A1#00000000
(1542546887.203348) slcan0 4A2#00000000
(1542546887.204818) slcan0 4A3#00000000
(1542546887.206193) slcan0 4A4#00000000
(1542546887.210014) slcan0 4A1#R
(1542546887.210645) slcan0 4A2#R
(1542546887.211276) slcan0 4A3#R
(1542546887.211907) slcan0 4A4#R
(1542546887.213318) slcan0 4A1#00000000
(1542546887.213345) slcan0 4A2#00000000
(1542546887.214824) slcan0 4A3#00000000
(1542546887.216192) slcan0 4A4#00000000
(1542546887.220009) slcan0 4A1#R
(1542546887.220650) slcan0 4A2#R
(1542546887.221288) slcan0 4A3#R
(1542546887.221929) slcan0 4A4#R
(1542546887.223323) slcan0 4A1#00000000
(1542546887.223352) slcan0 4A2#00000000
(1542546887.224821) slcan0 4A3#00000000
(1542546887.226195) slcan0 4A4#00000000
(1542546887.230008) slcan0 4A1#R
(1542546887.230644) slcan0 4A2#R
(1542546887.231279) slcan0 4A3#R
(1542546887.231914) slcan0 4A4#R
(1542546887.233324) slcan0 4A1#00000000
(1542546887.233351) slcan0 4A2#00000000
(1542546887.234822) slcan0 4A3#00000000
(1542546887.236197) slcan0 4A4#00000000
(1542546887.240009) slcan0 4A1#R
(1542546887.240648) slcan0 4A2#R
(1542546887.241286) slcan0 4A3#R
(1542546887.241932) slcan0 4A4#R
(1542546887.243326) slcan0 4A1#00000000
(1542546887.243356) slcan0 4A2#00000000
(1542546887.244823) slcan0 4A3#00000000
(1542546887.246197) slcan0 4A4#00000000
(1542546887.250013) slcan0 4A1#R
(1542546887.250650) slcan0 4A2#R
(1542546887.251286) slcan0 4A3#R
(1542546887.251933) slcan0 4A4#R
(1542546887.253328) slcan0 4A1#00000000
(1542546887.253361) slcan0 4A2#00000000
(1542546887.254825) slcan0 4A3#00000000
(1542546887.256199) slcan0 4A4#00000000
(1542546887.260009) slcan0 4A1#R
(1542546887.260642) slcan0 4A2#R
(1542546887.261280) slcan0 4A3#R
(1542546887.261915) slcan0 4A4#R
(1542546887.263329) slcan0 4A1#00000000
(1542546887.263357) slcan0 4A2#00000000
(1542546887.264826) slcan0 4A3#00000000
(1542546887.266200) slcan0 4A4#00000000
(1542546887.270010) slcan0 4A1#R
(1542546887.270650) slcan0 4A2#R
(1542546887.271288) slcan0 4A3#R
(1542546887.271936) slcan0 4A4#R
(1542546887.273330) slcan0 4A1#00000000
(1542546887.273358) slcan0 4A2#00000000
(1542546887.274702) slcan0 4A3#00000000
(1542546887.276076) slcan0 4A4#00000000
(1542546887.280009) slcan0 4A1#R
(1542546887.280643) slcan0 4A2#R
(1542546887.281278) slcan0 4A3#R
(1542546887.281910) slcan0 4A4#R
(1542546887.283081) slcan0 4A1#00000000
(1542546887.283108) slcan0 4A2#00000000
(1542546887.284453) slcan0 4A3#00000000
(1542546887.285827) slcan0 4A4#00000000
(1542546887.290012) slcan0 4A1#R
(1542546887.290650) slcan0 4A2#R
(1542546887.291288) slcan0 4A3#R
(1542546887.291921) slcan0 4A4#R
(1542546887.292832) slcan0 4A1#00000000
(1542546887.292859) slcan0 4A2#00000000
(1542546887.294204) slcan0 4A3#00000000
(1542546887.295703) slcan0 4A4#00000000
(1542546887.300007) slcan0 4A1#R
(1542546887.300637) slcan0 4A2#R
(1542546887.301266) slcan0 4A3#R
(1542546887.301896) slcan0 4A4#R
(1542546887.302705) slcan0 4A1#00000000
(1542546887.304080) slcan0 4A2#00000000
(1542546887.305453) slcan0 4A3#00000000
(1542546887.305483) slcan0 4A4#00000000
(1542546887.310008) slcan0 4A1#R
(1542546887.310645) slcan0 4A2#R
(1542546887.311281) slcan0 4A3#R
(1542546887.311915) slcan0 4A4#R
(1542546887.312585) slcan0 4A1#00000000
(1542546887.313957) slcan0 4A2#00000000
(1542546887.315332) slcan0 4A3#00000000
(1542546887.315358) slcan0 4A4#00000000
(1542546887.320008) slcan0 4A1#R
(1542546887.320642) slcan0 4A2#R
(1542546887.321275) slcan0 4A3#R
(1542546887.321909) slcan0 4A4#R
(1542546887.322334) slcan0 4A1#00000000
(1542546887.323709) slcan0 4A2#00000000
(1542546887.325083) slcan0 4A3#00000000
(1542546887.325111) slcan0 4A4#00000000
(1542546887.330012) slcan0 4A1#R
(1542546887.330650) slcan0 4A2#R
(1542546887.331289) slcan0 4A3#R
(1542546887.331925) slcan0 4A4#R
(1542546887.332102) slcan0 4A1#00000000
(1542546887.333586) slcan0 4A2#00000000
(1542546887.334959) slcan0 4A3#00000000
(1542546887.334988) slcan0 4A4#00000000
(1542546887.340008) slcan0 4A1#R
(1542546887.340644) slcan0 4A2#R
(1542546887.341280) slcan0 4A3#R
(1542546887.341913) slcan0 4A4#R
(1542546887.343338) slcan0 4A1#00000000
(1542546887.343365) slcan0 4A2#00000000
(1542546887.344711) slcan0 4A3#00000000
(1542546887.346085) slcan0 4A4#00000000
(1542546887.350014) slcan0 4A1#R
(1542546887.350652) slcan0 4A2#R
(1542546887.351290) slcan0 4A3#R
(1542546887.351926) slcan0 4A4#R
(1542546887.353090) slcan0 4A1#00000000
(1542546887.353119) slcan0 4A2#00000000
(1542546887.354587) slcan0 4A3#00000000
(1542546887.355961) slcan0 4A4#00000000
(1542546887.360008) slcan0 4A1#R
(1542546887.360644) slcan0 4A2#R
(1542546887.361278) slcan0 4A3#R
(1542546887.361911) slcan0 4A4#R
(1542546887.362965) slcan0 4A1#00000000
(1542546887.362993) slcan0 4A2#00000000
(1542546887.364338) slcan0 4A3#00000000
(1542546887.365713) slcan0 4A4#00000000
(1542546887.370014) slcan0 4A1#R
(1542546887.370652) slcan0 4A2#R
(1542546887.371288) slcan0 4A3#R
(1542546887.371922) slcan0 4A4#R
(1542546887.372717) slcan0 4A1#00000000
(1542546887.374089) slcan0 4A2#00000000
(1542546887.374214) slcan0 4A3#00000000
(1542546887.375588) slcan0 4A4#00000000
(1542546887.380009) slcan0 4A1#R
(1542546887.380643) slcan0 4A2#R
(1542546887.381276) slcan0 4A3#R
(1542546887.381913) slcan0 4A4#R
(1542546887.382593) slcan0 4A1#00000000
(1542546887.383965) slcan0 4A2#00000000
(1542546887.385340) slcan0 4A3#00000000
(1542546887.385367) slcan0 4A4#00000000
(1542546887.390008) slcan0 4A1#R
(1542546887.390646) slcan0 4A2#R
(1542546887.391282) slcan0 4A3#R
(1542546887.391917) slcan0 4A4#R
(1542546887.392343) slcan0 4A1#00000000
(1542546887.393717) slcan0 4A2#00000000
(1542546887.395100) slcan0 4A3#00000000
(1542546887.395126) slcan0 4A4#00000000
(1542546887.400008) slcan0 4A1#R
(1542546887.400643) slcan0 4A2#R
(1542546887.401277) slcan0 4A3#R
(1542546887.401910) slcan0 4A4#R
(1542546887.402221) slcan0 4A1#00000000
(1542546887.403594) slcan0 4A2#00000000
(1542546887.404968) slcan0 4A3#00000000
(1542546887.404994) slcan0 4A4#00000000
(1542546887.410008) slcan0 4A1#R
(1542546887.410642) slcan0 4A2#R
(1542546887.411276) slcan0 4A3#R
(1542546887.411908) slcan0 4A4#R
(1542546887.412102) slcan0 4A1#00000000
(1542546887.413473) slcan0 4A2#00000000
(1542546887.414844) slcan0 4A3#00000000
(1542546887.416219) slcan0 4A4#00000000
(1542546887.420008) slcan0 4A1#R
(1542546887.420644) slcan0 4A2#R
(1542546887.421278) slcan0 4A3#R
(1542546887.421911) slcan0 4A4#R
(1542546887.422109) slcan0 4A1#00000000
(1542546887.423472) slcan0 4A2#00000000
(1542546887.424846) slcan0 4A3#00000000
(1542546887.426219) slcan0 4A4#00000000
(1542546887.430010) slcan0 4A1#R
(1542546887.430646) slcan0 4A2#R
(1542546887.431281) slcan0 4A3#R
(1542546887.431914) slcan0 4A4#R
(1542546887.432101) slcan0 4A1#00000000
(1542546887.433474) slcan0 4A2#00000000
(1542546887.434846) slcan0 4A3#00000000
(1542546887.436222) slcan0 4A4#00000000
(1542546887.440010) slcan0 4A1#R
(1542546887.440646) slcan0 4A2#R
(1542546887.441281) slcan0 4A3#R
(1542546887.441914) slcan0 4A4#R
(1542546887.442113) slcan0 4A1#00000000
(1542546887.443474) slcan0 4A2#00000000
(1542546887.444848) slcan0 4A3#00000000
(1542546887.446222) slcan0 4A4#00000000
(1542546887.450009) slcan0 4A1#R
(1542546887.450647) slcan0 4A2#R
(1542546887.451282) slcan0 4A3#R
(1542546887.451914) slcan0 4A4#R
(1542546887.452113) slcan0 4A1#00000000
(1542546887.453476) slcan0 4A2#00000000
(1542546887.454850) slcan0 4A3#00000000
(1542546887.454973) slcan0 4A4#00000000
(1542546887.460011) slcan0 4A1#R
(1542546887.460646) slcan0 4A2#R
(1542546887.461276) slcan0 4A3#R
(1542546887.461904) slcan0 4A4#R
(1542546887.462103) slcan0 4A1#00000000
(1542546887.463473) slcan0 4A2#00000000
(1542546887.464847) slcan0 4A3#00000000
(1542546887.464971) slcan0 4A4#00000000
(1542546887.470009) slcan0 4A1#R
(1542546887.470652) slcan0 4A2#R
(1542546887.471288) slcan0 4A3#R
(1542546887.471922) slcan0 4A4#R
(1542546887.472115) slcan0 4A1#00000000
(1542546887.473478) slcan0 4A2#00000000
(1542546887.474852) slcan0 4A3#00000000
(1542546887.476349) slcan0 4A4#00000000
(1542546887.480010) slcan0 4A1#R
(1542546887.480653) slcan0 4A2#R
(1542546887.481289) slcan0 4A3#R
(1542546887.481923) slcan0 4A4#R
(1542546887.482108) slcan0 4A1#00000000
(1542546887.483480) slcan0 4A2#00000000
(1542546887.484853) slcan0 4A3#00000000
(1542546887.486351) slcan0 4A4#00000000
(1542546887.490008) slcan0 4A1#R
(1542546887.490654) slcan0 4A2#R
(1542546887.491289) slcan0 4A3#R
(1542546887.491924) slcan0 4A4#R
(1542546887.492110) slcan0 4A1#00000000
(1542546887.493480) slcan0 4A2#00000000
(1542546887.494853) slcan0 4A3#00000000
(1542546887.496352) slcan0 4A4#00000000
(1542546887.500009) slcan0 4A1#R
(1542546887.500656) slcan0 4A2#R
(1542546887.501291) slcan0 4A3#R
(1542546887.501925) slcan0 4A4#R
(1542546887.502113) slcan0 4A1#00000000
(1542546887.503491) slcan0 4A2#00000000
(1542546887.504856) slcan0 4A3#00000000
(1542546887.504984) slcan0 4A4#00000000
(1542546887.510010) slcan0 4A1#R
(1542546887.510657) slcan0 4A2#R
(1542546887.511293) slcan0 4A3#R
(1542546887.511928) slcan0 4A4#R
(1542546887.512111) slcan0 4A1#00000000
(1542546887.513483) slcan0 4A2#00000000
(1542546887.514856) slcan0 4A3#00000000
(1542546887.516354) slcan0 4A4#00000000
(1542546887.520009) slcan0 4A1#R
(1542546887.520657) slcan0 4A2#R
(1542546887.521291) slcan0 4A3#R
(1542546887.521923) slcan0 4A4#R
(1542546887.522122) slcan0 4A1#00000000
(1542546887.523485) slcan0 4A2#00000000
(1542546887.524858) slcan0 4A3#00000000
(1542546887.524982) slcan0 4A4#00000000
(1542546887.530009) slcan0 4A1#R
(1542546887.530659) slcan0 4A2#R
(1542546887.531292) slcan0 4A3#R
(1542546887.531926) slcan0 4A4#R
(1542546887.532114) slcan0 4A1#00000000
(1542546887.533485) slcan0 4A2#00000000
(1542546887.534859) slcan0 4A3#00000000
(1542546887.536357) slcan0 4A4#00000000
(1542546887.540010) slcan0 4A1#R
(1542546887.540658) slcan0 4A2#R
(1542546887.541293) slcan0 4A3#R
(1542546887.541926) slcan0 4A4#R
(1542546887.542116) slcan0 4A1#00000000
(1542546887.543487) slcan0 4A2#00000000
(1542546887.544860) slcan0 4A3#00000000
(1542546887.544984) slcan0 4A4#00000000
(1542546887.550009) slcan0 4A1#R
(1542546887.550657) slcan0 4A2#R
(1542546887.551292) slcan0 4A3#R
(1542546887.551925) slcan0 4A4#R
(1542546887.552115) slcan0 4A1#00000000
(1542546887.553488) slcan0 4A2#00000000
(1542546887.554861) slcan0 4A3#00000000
(1542546887.554986) slcan0 4A4#00000000
(1542546887.560008) slcan0 4A1#R
(1542546887.560656) slcan0 4A2#R
(1542546887.561290) slcan0 4A3#R
(1542546887.561924) slcan0 4A4#R
(1542546887.562118) slcan0 4A1#00000000
(1542546887.563490) slcan0 4A2#00000000
(1542546887.564863) slcan0 4A3#00000000
(1542546887.564987) slcan0 4A4#00000000
(1542546887.570008) slcan0 4A1#R
(1542546887.570657) slcan0 4A2#R
(1542546887.571291) slcan0 4A3#R
(1542546887.571925) slcan0 4A4#R
(1542546887.572129) slcan0 4A1#00000000
(1542546887.573491) slcan0 4A2#00000000
(1542546887.574865) slcan0 4A3#00000000
(1542546887.574988) slcan0 4A4#00000000
(1542546887.580008) slcan0 4A1#R
(1542546887.580657) slcan0 4A2#R
(1542546887.581292) slcan0 4A3#R
(1542546887.581925) slcan0 4A4#R
(1542546887.582121) slcan0 4A1#00000000
(1542546887.583492) slcan0 4A2#00000000
(1542546887.584865) slcan0 4A3#00000000
(1542546887.584989) slcan0 4A4#00000000
(1542546887.590009) slcan0 4A1#R
(1542546887.590658) slcan0 4A2#R
(1542546887.591293) slcan0 4A3#R
(1542546887.591925) slcan0 4A4#R
(1542546887.592121) slcan0 4A1#00000000
(1542546887.593501) slcan0 4A2#00000000
(1542546887.594867) slcan0 4A3#00000000
(1542546887.594991) slcan0 4A4#00000000
(1542546887.600009) slcan0 4A1#R
(1542546887.600657) slcan0 4A2#R
(1542546887.601292) slcan0 4A3#R
(1542546887.601925) slcan0 4A4#R
(1542546887.602126) slcan0 4A1#00000000
(1542546887.603495) slcan0 4A2#00000000
(1542546887.604867) slcan0 4A3#00000000
(1542546887.604993) slcan0 4A4#00000000
(1542546887.610008) slcan0 4A1#R
(1542546887.610656) slcan0 4A2#R
(1542546887.611289) slcan0 4A3#R
(1542546887.611922) slcan0 4A4#R
(1542546887.612133) slcan0 4A1#00000000
(1542546887.613497) slcan0 4A2#00000000
(1542546887.614869) slcan0 4A3#00000000
(1542546887.614993) slcan0 4A4#00000000
(1542546887.620008) slcan0 4A1#R
(1542546887.620656) slcan0 4A2#R
(1542546887.621288) slcan0 4A3#R
(1542546887.621922) slcan0 4A4#R
(1542546887.622128) slcan0 4A1#00000000
(1542546887.623497) slcan0 4A2#00000000
(1542546887.624871) slcan0 4A3#00000000
(1542546887.624995) slcan0 4A4#00000000
(1542546887.630009) slcan0 4A1#R
(1542546887.630663) slcan0 4A2#R
(1542546887.631297) slcan0 4A3#R
(1542546887.631929) slcan0 4A4#R
(1542546887.632128) slcan0 4A1#00000000
(1542546887.633499) slcan0 4A2#00000000
(1542546887.634871) slcan0 4A3#00000000
(1542546887.634996) slcan0 4A4#00000000
(1542546887.640009) slcan0 4A1#R
(1542546887.640657) slcan0 4A2#R
(1542546887.641290) slcan0 4A3#R
(1542546887.641923) slcan0 4A4#R
(1542546887.642131) slcan0 4A1#00000000
(1542546887.643501) slcan0 4A2#00000000
(1542546887.644873) slcan0 4A3#00000000
(1542546887.644997) slcan0 4A4#00000000
(1542546887.650008) slcan0 4A1#R
(1542546887.650660) slcan0 4A2#R
(1542546887.651293) slcan0 4A3#R
(1542546887.651925) slcan0 4A4#R
(1542546887.652138) slcan0 4A1#00000000
(1542546887.653502) slcan0 4A2#00000000
(1542546887.654874) slcan0 4A3#00000000
(1542546887.654998) slcan0 4A4#00000000
(1542546887.660009) slcan0 4A1#R
(1542546887.660661) slcan0 4A2#R
(1542546887.661293) slcan0 4A3#R
(1542546887.661927) slcan0 4A4#R
(1542546887.662133) slcan0 4A1#00000000
(1542546887.663502) slcan0 4A2#00000000
(1542546887.664875) slcan0 4A3#00000000
(1542546887.664999) slcan0 4A4#00000000
(1542546887.670009) slcan0 4A1#R
(1542546887.670661) slcan0 4A2#R
(1542546887.671294) slcan0 4A3#R
(1542546887.671926) slcan0 4A4#R
(1542546887.672133) slcan0 4A1#00000000
(1542546887.673505) slcan0 4A2#00000000
(1542546887.674999) slcan0 4A3#00000000
(1542546887.676376) slcan0 4A4#00000000
(1542546887.680009) slcan0 4A1#R
(1542546887.680659) slcan0 4A2#R
(1542546887.681288) slcan0 4A3#R
(1542546887.681916) slcan0 4A4#R
(1542546887.682127) slcan0 4A1#00000000
(1542546887.683501) slcan0 4A2#00000000
(1542546887.685002) slcan0 4A3#00000000
(1542546887.685027) slcan0 4A4#00000000
(1542546887.690009) slcan0 4A1#R
(1542546887.690663) slcan0 4A2#R
(1542546887.691296) slcan0 4A3#R
(1542546887.691930) slcan0 4A4#R
(1542546887.692143) slcan0 4A1#00000000
(1542546887.693507) slcan0 4A2#00000000
(1542546887.695002) slcan0 4A3#00000000
(1542546887.696378) slcan0 4A4#00000000
(1542546887.700009) slcan0 4A1#R
(1542546887.700663) slcan0 4A2#R
(1542546887.701296) slcan0 4A3#R
(1542546887.701929) slcan0 4A4#R
(1542546887.702138) slcan0 4A1#00000000
(1542546887.703515) slcan0 4A2#00000000
(1542546887.705003) slcan0 4A3#00000000
(1542546887.706379) slcan0 4A4#00000000
(1542546887.710009) slcan0 4A1#R
(1542546887.710659) slcan0 4A2#R
(1542546887.711287) slcan0 4A3#R
(1542546887.711914) slcan0 4A4#R
(1542546887.712129) slcan0 4A1#00000000
(1542546887.713505) slcan0 4A2#00000000
(1542546887.715001) slcan0 4A3#00000000
(1542546887.716376) slcan0 4A4#00000000
(1542546887.720009) slcan0 4A1#R
(1542546887.720665) slcan0 4A2#R
(1542546887.721298) slcan0 4A3#R
(1542546887.721932) slcan0 4A4#R
(1542546887.722140) slcan0 4A1#00000000
(1542546887.723509) slcan0 4A2#00000000
(1542546887.725006) slcan0 4A3#00000000
(1542546887.726381) slcan0 4A4#00000000
(1542546887.730009) slcan0 4A1#R
(1542546887.730663) slcan0 4A2#R
(1542546887.731296) slcan0 4A3#R
(1542546887.731927) slcan0 4A4#R
(1542546887.732137) slcan0 4A1#00000000
(1542546887.733510) slcan0 4A2#00000000
(1542546887.735007) slcan0 4A3#00000000
(1542546887.736383) slcan0 4A4#00000000
(1542546887.740009) slcan0 4A1#R
(1542546887.740665) slcan0 4A2#R
(1542546887.741297) slcan0 4A3#R
(1542546887.741930) slcan0 4A4#R
(1542546887.742138) slcan0 4A1#00000000
(1542546887.743512) slcan0 4A2#00000000
(1542546887.745008) slcan0 4A3#00000000
(1542546887.746385) slcan0 4A4#00000000
(1542546887.750009) slcan0 4A1#R
(1542546887.750664) slcan0 4A2#R
(1542546887.751297) slcan0 4A3#R
(1542546887.751928) slcan0 4A4#R
(1542546887.752137) slcan0 4A1#00000000
(1542546887.753513) slcan0 4A2#00000000
(1542546887.755009) slcan0 4A3#00000000
(1542546887.756394) slcan0 4A4#00000000
(1542546887.760008) slcan0 4A1#R
(1542546887.760665) slcan0 4A2#R
(1542546887.761297) slcan0 4A3#R
(1542546887.761929) slcan0 4A4#R
(1542546887.762140) slcan0 4A1#00000000
(1542546887.763519) slcan0 4A2#00000000
(1542546887.765011) slcan0 4A3#00000000
(1542546887.766387) slcan0 4A4#00000000
(1542546887.770009) slcan0 4A1#R
(1542546887.770669) slcan0 4A2#R
(1542546887.771302) slcan0 4A3#R
(1542546887.771933) slcan0 4A4#R
(1542546887.772142) slcan0 4A1#00000000
(1542546887.773515) slcan0 4A2#00000000
(1542546887.775013) slcan0 4A3#00000000
(1542546887.776388) slcan0 4A4#00000000
(1542546887.780009) slcan0 4A1#R
(1542546887.780665) slcan0 4A2#R
(1542546887.781298) slcan0 4A3#R
(1542546887.781928) slcan0 4A4#R
(1542546887.782143) slcan0 4A1#00000000
(1542546887.783517) slcan0 4A2#00000000
(1542546887.785013) slcan0 4A3#00000000
(1542546887.786389) slcan0 4A4#00000000
(1542546887.790009) slcan0 4A1#R
(1542546887.790663) slcan0 4A2#R
(1542546887.791297) slcan0 4A3#R
(1542546887.791928) slcan0 4A4#R
(1542546887.792142) slcan0 4A1#00000000
(1542546887.793518) slcan0 4A2#00000000
(1542546887.795014) slcan0 4A3#00000000
(1542546887.796391) slcan0 4A4#00000000
(1542546887.800010) slcan0 4A1#R
(1542546887.800665) slcan0 4A2#R
(1542546887.801299) slcan0 4A3#R
(1542546887.801930) slcan0 4A4#R
(1542546887.802145) slcan0 4A1#00000000
(1542546887.803518) slcan0 4A2#00000000
(1542546887.805016) slcan0 4A3#00000000
(1542546887.806392) slcan0 4A4#00000000
(1542546887.810009) slcan0 4A1#R
(1542546887.810650) slcan0 4A2#R
(1542546887.811299) slcan0 4A3#R
(1542546887.811930) slcan0 4A4#R
(1542546887.812148) slcan0 4A1#00000000
(1542546887.813520) slcan0 4A2#00000000
(1542546887.815017) slcan0 4A3#00000000
(1542546887.816393) slcan0 4A4#00000000
(1542546887.820010) slcan0 4A1#R
(1542546887.820652) slcan0 4A2#R
(1542546887.821299) slcan0 4A3#R
(1542546887.821931) slcan0 4A4#R
